
T44B4 029:145 SEGGER J-Link V4.72a Log File (0001ms, 0001ms total)
T44B4 029:145 DLL Compiled: Jun 26 2013 11:49:14 (0001ms, 0001ms total)
T44B4 029:145 Logging started @ 2018-07-21 15:48 (0001ms, 0001ms total)
T44B4 029:146 JLINK_SetWarnOutHandler(...) (0000ms, 0001ms total)
T44B4 029:146 JLINK_OpenEx(...)
Firmware: J-Link V9 compiled Oct  6 2017 16:38:28
Hardware: V9.20
Feature(s): RDI, GDB, FlashDL, FlashBP, JFlash, RDDI  returns O.K. (0011ms, 0012ms total)
T44B4 029:157 JLINK_GetEmuCaps()  returns 0xB9FF7BBF (0000ms, 0012ms total)
T44B4 029:157 JLINK_TIF_GetAvailable(...) (0001ms, 0013ms total)
T44B4 029:158 JLINK_SetErrorOutHandler(...) (0000ms, 0013ms total)
T44B4 029:158 JLINK_ExecCommand("ProjectFile = "F:\WorkSpace_2018\Location\FOC_TEST\t_HDD\MDK-ARM\JLinkSettings.ini"", ...)
                JLINK_AddMirrorAreaEx(Addr = 0x00000000, Size = 0x00000000) (0000ms, 0000ms total)
              Device "CORTEX-M0" selected (0 KB flash, 0 KB RAM).  returns 0x00 (0003ms, 0016ms total)
T44B4 029:167 JLINK_ExecCommand("Device = STM32F031C6Tx", ...)
                JLINK_AddMirrorAreaEx(Addr = 0x00000000, Size = 0x00000000) (0000ms, 0000ms total)
              Device "CORTEX-M0" selected (0 KB flash, 0 KB RAM).  returns 0x00 (0011ms, 0027ms total)
T44B4 029:178 JLINK_ExecCommand("DisableConnectionTimeout", ...)  returns 0x00 (0000ms, 0027ms total)
T44B4 029:178 JLINK_GetHardwareVersion()  returns 0x16760 (0001ms, 0028ms total)
T44B4 029:179 JLINK_GetDLLVersion()  returns 47201 (0000ms, 0028ms total)
T44B4 029:179 JLINK_GetFirmwareString(...) (0000ms, 0028ms total)
T44B4 029:193 JLINK_GetDLLVersion()  returns 47201 (0000ms, 0028ms total)
T44B4 029:193 JLINK_GetCompileDateTime() (0000ms, 0028ms total)
T44B4 029:196 JLINK_GetFirmwareString(...) (0000ms, 0028ms total)
T44B4 029:198 JLINK_GetHardwareVersion()  returns 0x16760 (0000ms, 0028ms total)
T44B4 029:205 JLINK_TIF_Select(JLINKARM_TIF_SWD)  returns 0x00 (0001ms, 0029ms total)
T44B4 029:206 JLINK_SetSpeed(5000) (0000ms, 0029ms total)
T44B4 029:206 JLINK_GetId() >0x108 TIF>Found SWD-DP with ID 0x0BB11477 >0x0D TIF> >0x21 TIF> >0x0D TIF> >0x28 TIF> >0x0D TIF> >0x28 TIF> >0x0D TIF> >0x21 TIF> >0x0D TIF> >0x21 TIF> >0x0D TIF> >0x28 TIF> >0x0D TIF> >0x21 TIF> >0x0D TIF> >0x21 TIF> >0x0D TIF> >0x21 TIF> >0x0D TIF> >0x21 TIF> >0x0D TIF> >0x21 TIF> >0x0D TIF> >0x28 TIF> >0x0D TIF> >0x28 TIF> >0x0D TIF> >0x21 TIF> >0x0D TIF> >0x21 TIF> >0x0D TIF> >0x28 TIF> >0x0D TIF> >0x21 TIF> >0x0D TIF> >0x21 TIF> >0x0D TIF> >0x28 TIF> >0x0D TIF>
 >0x28 TIF> >0x0D TIF> >0x28 TIF> >0x0D TIF> >0x21 TIF> >0x0D TIF> >0x21 TIF> >0x0D TIF> >0x28 TIF> >0x0D TIF> >0x28 TIF> >0x0D TIF> >0x28 TIF> >0x0D TIF> >0x28 TIF> >0x0D TIF> >0x28 TIF> >0x0D TIF> >0x21 TIF> >0x0D TIF> >0x21 TIF> >0x0D TIF> >0x21 TIF> >0x0D TIF> >0x28 TIF> >0x0D TIF> >0x21 TIF> >0x0D TIF> >0x21 TIF> >0x0D TIF> >0x28 TIF> >0x0D TIF> >0x21 TIF> >0x0D TIF> >0x21 TIF>FPUnit: 4 code (BP) slots and 0 literal slots >0x0D TIF> >0x28 TIF> >0x0D TIF> >0x21 TIF> >0x0D TIF> >0x21 TIF> >0x0D TIF>
 >0x28 TIF> >0x0D TIF> >0x28 TIF> >0x0D TIF> >0x28 TIF> >0x0D TIF> >0x21 TIF> >0x0D TIF> >0x21 TIF> >0x0D TIF> >0x28 TIF> >0x0D TIF> >0x21 TIF> >0x0D TIF> >0x21 TIF> >0x0D TIF> >0x28 TIF> >0x0D TIF> >0x21 TIF> >0x0D TIF> >0x21 TIF>Found Cortex-M0 r0p0, Little endian. >0x0D TIF> >0x21 TIF>  returns 0x0BB11477 (0022ms, 0051ms total)
T44B4 029:228 JLINK_GetDLLVersion()  returns 47201 (0000ms, 0051ms total)
T44B4 029:228 JLINK_CORE_GetFound()  returns 0x60000FF (0000ms, 0051ms total)
T44B4 029:230 JLINK_GetDebugInfo(0x100) -- Value=0xE00FF003  returns 0x00 (0000ms, 0051ms total)
T44B4 029:230 JLINK_GetDebugInfo(0x101)  returns 0xFFFFFFFF (0000ms, 0051ms total)
T44B4 029:230 JLINK_ReadMemEx(0xE0041FF0, 0x0010 Bytes, ..., AccessWidth = 33554436) -- CPU is running -- CPU_ReadMem(16 bytes @ 0xE0041FF0) -- Data:  00 00 00 00 00 00 00 00 00 00 00 00 00 00 00 00  returns 0x10 (0001ms, 0052ms total)
T44B4 029:231 JLINK_GetDebugInfo(0x102)  returns 0xFFFFFFFF (0000ms, 0052ms total)
T44B4 029:231 JLINK_GetDebugInfo(0x103)  returns 0xFFFFFFFF (0000ms, 0052ms total)
T44B4 029:231 JLINK_ReadMemEx(0xE0040FF0, 0x0010 Bytes, ..., AccessWidth = 33554436) -- CPU is running -- CPU_ReadMem(16 bytes @ 0xE0040FF0) -- Data:  00 00 00 00 00 00 00 00 00 00 00 00 00 00 00 00  returns 0x10 (0000ms, 0052ms total)
T44B4 029:231 JLINK_GetDebugInfo(0x104)  returns 0xFFFFFFFF (0000ms, 0052ms total)
T44B4 029:231 JLINK_GetDebugInfo(0x105)  returns 0xFFFFFFFF (0000ms, 0052ms total)
T44B4 029:231 JLINK_GetDebugInfo(0x106)  returns 0xFFFFFFFF (0000ms, 0052ms total)
T44B4 029:231 JLINK_GetDebugInfo(0x107)  returns 0xFFFFFFFF (0000ms, 0052ms total)
T44B4 029:231 JLINK_GetDebugInfo(0x10C)  returns 0xFFFFFFFF (0000ms, 0052ms total)
T44B4 029:231 JLINK_GetDebugInfo(0x01)  returns 0xFFFFFFFF (0000ms, 0052ms total)
T44B4 029:231 JLINK_GetDeviceFamily()  returns 6 (0000ms, 0052ms total)
T44B4 029:231 JLINK_ReadMemU32(0xE000ED00, 0x0001 Items, ...) -- CPU is running -- CPU_ReadMem(4 bytes @ 0xE000ED00) -- Data:  00 C2 0C 41  returns 0x01 (0001ms, 0053ms total)
T44B4 029:232 JLINK_GetDebugInfo(0x10F)  returns 0xFFFFFFFF (0000ms, 0053ms total)
T44B4 029:232 JLINK_SetResetType(JLINKARM_RESET_TYPE_NORMAL)  returns JLINKARM_RESET_TYPE_NORMAL (0000ms, 0053ms total)
T44B4 029:232 JLINK_Reset() -- CPU is running -- CPU_WriteMem(4 bytes @ 0xE000EDF0) -- CPU is running -- CPU_WriteMem(4 bytes @ 0xE000EDFC) >0x35 TIF> -- CPU is running -- CPU_WriteMem(4 bytes @ 0xE000ED0C) -- CPU is running -- CPU_ReadMem(4 bytes @ 0xE000EDF0) -- CPU is running -- CPU_ReadMem(4 bytes @ 0xE000EDF0) -- CPU is running -- CPU_WriteMem(4 bytes @ 0xE000EDF0) -- CPU is running -- CPU_WriteMem(4 bytes @ 0xE000EDFC) -- CPU is running -- CPU_ReadMem(4 bytes @ 0xE000EDF0)
 -- CPU_WriteMem(4 bytes @ 0xE0002000) (0013ms, 0066ms total)
T44B4 029:245 JLINK_Halt()  returns 0x00 (0000ms, 0066ms total)
T44B4 029:245 JLINK_ReadMemU32(0xE000EDF0, 0x0001 Items, ...) -- CPU_ReadMem(4 bytes @ 0xE000EDF0) -- Data:  03 00 03 00  returns 0x01 (0000ms, 0066ms total)
T44B4 029:245 JLINK_WriteU32(0xE000EDF0, 0xA05F0003) -- CPU_WriteMem(4 bytes @ 0xE000EDF0)  returns 0x00 (0000ms, 0066ms total)
T44B4 029:245 JLINK_WriteU32(0xE000EDFC, 0x01000000) -- CPU_WriteMem(4 bytes @ 0xE000EDFC)  returns 0x00 (0001ms, 0067ms total)
T44B4 029:254 JLINK_GetHWStatus(...)  returns 0x00 (0000ms, 0067ms total)
T44B4 029:262 JLINK_GetNumBPUnits(Type = 0xFFFFFF00)  returns 0x04 (0000ms, 0067ms total)
T44B4 029:262 JLINK_GetNumBPUnits(Type = 0xF0)  returns 0x2000 (0000ms, 0067ms total)
T44B4 029:262 JLINK_GetNumWPUnits()  returns 0x02 (0000ms, 0067ms total)
T44B4 029:271 JLINK_GetSpeed()  returns 0xFA0 (0000ms, 0067ms total)
T44B4 029:275 JLINK_ReadMemU32(0xE000E004, 0x0001 Items, ...) -- CPU_ReadMem(4 bytes @ 0xE000E004) -- Data:  00 00 00 00  returns 0x01 (0000ms, 0067ms total)
T44B4 029:275 JLINK_Halt()  returns 0x00 (0000ms, 0067ms total)
T44B4 029:275 JLINK_IsHalted()  returns TRUE (0000ms, 0067ms total)
T44B4 029:278 JLINK_WriteMem(0x20000000, 0x0170 Bytes, ...) -- Data:  00 BE 0A E0 0D 78 2D 06 68 40 08 24 40 00 00 D3 ... -- CPU_WriteMem(368 bytes @ 0x20000000)  returns 0x170 (0001ms, 0068ms total)
T44B4 029:279 JLINK_WriteReg(R0, 0x08000000)  returns 0x00 (0000ms, 0068ms total)
T44B4 029:279 JLINK_WriteReg(R1, 0x02DC6C00)  returns 0x00 (0000ms, 0068ms total)
T44B4 029:279 JLINK_WriteReg(R2, 0x00000001)  returns 0x00 (0000ms, 0068ms total)
T44B4 029:279 JLINK_WriteReg(R3, 0x00000000)  returns 0x00 (0000ms, 0068ms total)
T44B4 029:279 JLINK_WriteReg(R4, 0x00000000)  returns 0x00 (0000ms, 0068ms total)
T44B4 029:279 JLINK_WriteReg(R5, 0x00000000)  returns 0x00 (0000ms, 0068ms total)
T44B4 029:279 JLINK_WriteReg(R6, 0x00000000)  returns 0x00 (0000ms, 0068ms total)
T44B4 029:279 JLINK_WriteReg(R7, 0x00000000)  returns 0x00 (0000ms, 0068ms total)
T44B4 029:279 JLINK_WriteReg(R8, 0x00000000)  returns 0x00 (0000ms, 0068ms total)
T44B4 029:279 JLINK_WriteReg(R9, 0x2000016C)  returns 0x00 (0000ms, 0068ms total)
T44B4 029:279 JLINK_WriteReg(R10, 0x00000000)  returns 0x00 (0000ms, 0068ms total)
T44B4 029:279 JLINK_WriteReg(R11, 0x00000000)  returns 0x00 (0000ms, 0068ms total)
T44B4 029:279 JLINK_WriteReg(R12, 0x00000000)  returns 0x00 (0000ms, 0068ms total)
T44B4 029:279 JLINK_WriteReg(R13 (SP), 0x20001000)  returns 0x00 (0000ms, 0068ms total)
T44B4 029:279 JLINK_WriteReg(R14, 0x20000001)  returns 0x00 (0000ms, 0068ms total)
T44B4 029:279 JLINK_WriteReg(R15 (PC), 0x20000038)  returns 0x00 (0000ms, 0068ms total)
T44B4 029:279 JLINK_WriteReg(XPSR, 0x01000000)  returns 0x00 (0000ms, 0068ms total)
T44B4 029:279 JLINK_WriteReg(MSP, 0x20001000)  returns 0x00 (0000ms, 0068ms total)
T44B4 029:279 JLINK_WriteReg(PSP, 0x20001000)  returns 0x00 (0001ms, 0069ms total)
T44B4 029:280 JLINK_WriteReg(CFBP, 0x00000000)  returns 0x00 (0000ms, 0069ms total)
T44B4 029:280 JLINK_SetBPEx(Addr = 0x20000000, Type = 0xFFFFFFF2) -- CPU_ReadMem(4 bytes @ 0x20000000) -- CPU_WriteMem(4 bytes @ 0x20000000) -- CPU_ReadMem(4 bytes @ 0x20000000) -- CPU_WriteMem(4 bytes @ 0x20000000) -- CPU_ReadMem(2 bytes @ 0x20000000)  returns 0x00000001 (0001ms, 0070ms total)
T44B4 029:281 JLINK_Go() -- CPU_WriteMem(2 bytes @ 0x20000000) -- CPU_WriteMem(4 bytes @ 0xE0002008) -- CPU_WriteMem(4 bytes @ 0xE000200C) -- CPU_WriteMem(4 bytes @ 0xE0002010) -- CPU_WriteMem(4 bytes @ 0xE0002014) (0003ms, 0073ms total)
T44B4 029:284 JLINK_IsHalted() -- CPU_ReadMem(2 bytes @ 0x20000000)  returns TRUE (0002ms, 0075ms total)
T44B4 029:286 JLINK_ReadReg(R15 (PC))  returns 0x20000000 (0000ms, 0073ms total)
T44B4 029:286 JLINK_ClrBPEx(BPHandle = 0x00000001)  returns 0x00 (0000ms, 0073ms total)
T44B4 029:286 JLINK_ReadReg(R0)  returns 0x00000000 (0000ms, 0073ms total)
T44B4 029:286 JLINK_WriteReg(R0, 0x08000000)  returns 0x00 (0000ms, 0073ms total)
T44B4 029:286 JLINK_WriteReg(R1, 0x00000400)  returns 0x00 (0000ms, 0073ms total)
T44B4 029:286 JLINK_WriteReg(R2, 0x000000FF)  returns 0x00 (0000ms, 0073ms total)
T44B4 029:286 JLINK_WriteReg(R3, 0x00000000)  returns 0x00 (0000ms, 0073ms total)
T44B4 029:286 JLINK_WriteReg(R4, 0x00000000)  returns 0x00 (0000ms, 0073ms total)
T44B4 029:286 JLINK_WriteReg(R5, 0x00000000)  returns 0x00 (0000ms, 0073ms total)
T44B4 029:286 JLINK_WriteReg(R6, 0x00000000)  returns 0x00 (0000ms, 0073ms total)
T44B4 029:286 JLINK_WriteReg(R7, 0x00000000)  returns 0x00 (0000ms, 0073ms total)
T44B4 029:286 JLINK_WriteReg(R8, 0x00000000)  returns 0x00 (0000ms, 0073ms total)
T44B4 029:286 JLINK_WriteReg(R9, 0x2000016C)  returns 0x00 (0000ms, 0073ms total)
T44B4 029:286 JLINK_WriteReg(R10, 0x00000000)  returns 0x00 (0000ms, 0073ms total)
T44B4 029:286 JLINK_WriteReg(R11, 0x00000000)  returns 0x00 (0000ms, 0073ms total)
T44B4 029:286 JLINK_WriteReg(R12, 0x00000000)  returns 0x00 (0000ms, 0073ms total)
T44B4 029:286 JLINK_WriteReg(R13 (SP), 0x20001000)  returns 0x00 (0000ms, 0073ms total)
T44B4 029:286 JLINK_WriteReg(R14, 0x20000001)  returns 0x00 (0000ms, 0073ms total)
T44B4 029:286 JLINK_WriteReg(R15 (PC), 0x20000020)  returns 0x00 (0000ms, 0073ms total)
T44B4 029:286 JLINK_WriteReg(XPSR, 0x01000000)  returns 0x00 (0000ms, 0073ms total)
T44B4 029:286 JLINK_WriteReg(MSP, 0x20001000)  returns 0x00 (0000ms, 0073ms total)
T44B4 029:286 JLINK_WriteReg(PSP, 0x20001000)  returns 0x00 (0000ms, 0073ms total)
T44B4 029:286 JLINK_WriteReg(CFBP, 0x00000000)  returns 0x00 (0000ms, 0073ms total)
T44B4 029:286 JLINK_SetBPEx(Addr = 0x20000000, Type = 0xFFFFFFF2)  returns 0x00000002 (0000ms, 0073ms total)
T44B4 029:286 JLINK_Go() (0001ms, 0074ms total)
T44B4 029:287 JLINK_IsHalted() -- CPU_ReadMem(2 bytes @ 0x20000000)  returns TRUE (0002ms, 0076ms total)
T44B4 029:289 JLINK_ReadReg(R15 (PC))  returns 0x20000000 (0000ms, 0074ms total)
T44B4 029:289 JLINK_ClrBPEx(BPHandle = 0x00000002)  returns 0x00 (0000ms, 0074ms total)
T44B4 029:289 JLINK_ReadReg(R0)  returns 0x00000001 (0000ms, 0074ms total)
T44B4 029:289 JLINK_WriteReg(R0, 0x08000000)  returns 0x00 (0000ms, 0074ms total)
T44B4 029:289 JLINK_WriteReg(R1, 0x00000400)  returns 0x00 (0000ms, 0074ms total)
T44B4 029:289 JLINK_WriteReg(R2, 0x000000FF)  returns 0x00 (0000ms, 0074ms total)
T44B4 029:289 JLINK_WriteReg(R3, 0x00000000)  returns 0x00 (0000ms, 0074ms total)
T44B4 029:289 JLINK_WriteReg(R4, 0x00000000)  returns 0x00 (0000ms, 0074ms total)
T44B4 029:289 JLINK_WriteReg(R5, 0x00000000)  returns 0x00 (0000ms, 0074ms total)
T44B4 029:289 JLINK_WriteReg(R6, 0x00000000)  returns 0x00 (0000ms, 0074ms total)
T44B4 029:289 JLINK_WriteReg(R7, 0x00000000)  returns 0x00 (0000ms, 0074ms total)
T44B4 029:289 JLINK_WriteReg(R8, 0x00000000)  returns 0x00 (0000ms, 0074ms total)
T44B4 029:289 JLINK_WriteReg(R9, 0x2000016C)  returns 0x00 (0000ms, 0074ms total)
T44B4 029:289 JLINK_WriteReg(R10, 0x00000000)  returns 0x00 (0000ms, 0074ms total)
T44B4 029:289 JLINK_WriteReg(R11, 0x00000000)  returns 0x00 (0000ms, 0074ms total)
T44B4 029:289 JLINK_WriteReg(R12, 0x00000000)  returns 0x00 (0000ms, 0074ms total)
T44B4 029:289 JLINK_WriteReg(R13 (SP), 0x20001000)  returns 0x00 (0000ms, 0074ms total)
T44B4 029:289 JLINK_WriteReg(R14, 0x20000001)  returns 0x00 (0000ms, 0074ms total)
T44B4 029:289 JLINK_WriteReg(R15 (PC), 0x200000B8)  returns 0x00 (0000ms, 0074ms total)
T44B4 029:289 JLINK_WriteReg(XPSR, 0x01000000)  returns 0x00 (0000ms, 0074ms total)
T44B4 029:289 JLINK_WriteReg(MSP, 0x20001000)  returns 0x00 (0000ms, 0074ms total)
T44B4 029:289 JLINK_WriteReg(PSP, 0x20001000)  returns 0x00 (0000ms, 0074ms total)
T44B4 029:289 JLINK_WriteReg(CFBP, 0x00000000)  returns 0x00 (0000ms, 0074ms total)
T44B4 029:289 JLINK_SetBPEx(Addr = 0x20000000, Type = 0xFFFFFFF2)  returns 0x00000003 (0000ms, 0074ms total)
T44B4 029:289 JLINK_Go() (0001ms, 0075ms total)
T44B4 029:290 JLINK_IsHalted()  returns FALSE (0000ms, 0075ms total)
T44B4 029:327 JLINK_IsHalted() -- CPU_ReadMem(2 bytes @ 0x20000000)  returns TRUE (0002ms, 0077ms total)
T44B4 029:329 JLINK_ReadReg(R15 (PC))  returns 0x20000000 (0000ms, 0075ms total)
T44B4 029:329 JLINK_ClrBPEx(BPHandle = 0x00000003)  returns 0x00 (0000ms, 0075ms total)
T44B4 029:329 JLINK_ReadReg(R0)  returns 0x00000000 (0000ms, 0075ms total)
T44B4 029:329 JLINK_WriteReg(R0, 0x08000400)  returns 0x00 (0000ms, 0075ms total)
T44B4 029:329 JLINK_WriteReg(R1, 0x00000400)  returns 0x00 (0000ms, 0075ms total)
T44B4 029:329 JLINK_WriteReg(R2, 0x000000FF)  returns 0x00 (0000ms, 0075ms total)
T44B4 029:329 JLINK_WriteReg(R3, 0x00000000)  returns 0x00 (0000ms, 0075ms total)
T44B4 029:329 JLINK_WriteReg(R4, 0x00000000)  returns 0x00 (0000ms, 0075ms total)
T44B4 029:329 JLINK_WriteReg(R5, 0x00000000)  returns 0x00 (0000ms, 0075ms total)
T44B4 029:329 JLINK_WriteReg(R6, 0x00000000)  returns 0x00 (0000ms, 0075ms total)
T44B4 029:329 JLINK_WriteReg(R7, 0x00000000)  returns 0x00 (0000ms, 0075ms total)
T44B4 029:329 JLINK_WriteReg(R8, 0x00000000)  returns 0x00 (0000ms, 0075ms total)
T44B4 029:329 JLINK_WriteReg(R9, 0x2000016C)  returns 0x00 (0000ms, 0075ms total)
T44B4 029:329 JLINK_WriteReg(R10, 0x00000000)  returns 0x00 (0000ms, 0075ms total)
T44B4 029:329 JLINK_WriteReg(R11, 0x00000000)  returns 0x00 (0000ms, 0075ms total)
T44B4 029:329 JLINK_WriteReg(R12, 0x00000000)  returns 0x00 (0000ms, 0075ms total)
T44B4 029:329 JLINK_WriteReg(R13 (SP), 0x20001000)  returns 0x00 (0000ms, 0075ms total)
T44B4 029:329 JLINK_WriteReg(R14, 0x20000001)  returns 0x00 (0000ms, 0075ms total)
T44B4 029:329 JLINK_WriteReg(R15 (PC), 0x20000020)  returns 0x00 (0000ms, 0075ms total)
T44B4 029:329 JLINK_WriteReg(XPSR, 0x01000000)  returns 0x00 (0000ms, 0075ms total)
T44B4 029:329 JLINK_WriteReg(MSP, 0x20001000)  returns 0x00 (0000ms, 0075ms total)
T44B4 029:329 JLINK_WriteReg(PSP, 0x20001000)  returns 0x00 (0000ms, 0075ms total)
T44B4 029:329 JLINK_WriteReg(CFBP, 0x00000000)  returns 0x00 (0000ms, 0075ms total)
T44B4 029:329 JLINK_SetBPEx(Addr = 0x20000000, Type = 0xFFFFFFF2)  returns 0x00000004 (0000ms, 0075ms total)
T44B4 029:329 JLINK_Go() (0001ms, 0076ms total)
T44B4 029:330 JLINK_IsHalted() -- CPU_ReadMem(2 bytes @ 0x20000000)  returns TRUE (0002ms, 0078ms total)
T44B4 029:332 JLINK_ReadReg(R15 (PC))  returns 0x20000000 (0000ms, 0076ms total)
T44B4 029:332 JLINK_ClrBPEx(BPHandle = 0x00000004)  returns 0x00 (0000ms, 0076ms total)
T44B4 029:332 JLINK_ReadReg(R0)  returns 0x00000001 (0000ms, 0076ms total)
T44B4 029:332 JLINK_WriteReg(R0, 0x08000400)  returns 0x00 (0000ms, 0076ms total)
T44B4 029:332 JLINK_WriteReg(R1, 0x00000400)  returns 0x00 (0000ms, 0076ms total)
T44B4 029:332 JLINK_WriteReg(R2, 0x000000FF)  returns 0x00 (0000ms, 0076ms total)
T44B4 029:332 JLINK_WriteReg(R3, 0x00000000)  returns 0x00 (0000ms, 0076ms total)
T44B4 029:332 JLINK_WriteReg(R4, 0x00000000)  returns 0x00 (0000ms, 0076ms total)
T44B4 029:332 JLINK_WriteReg(R5, 0x00000000)  returns 0x00 (0000ms, 0076ms total)
T44B4 029:332 JLINK_WriteReg(R6, 0x00000000)  returns 0x00 (0000ms, 0076ms total)
T44B4 029:332 JLINK_WriteReg(R7, 0x00000000)  returns 0x00 (0000ms, 0076ms total)
T44B4 029:332 JLINK_WriteReg(R8, 0x00000000)  returns 0x00 (0000ms, 0076ms total)
T44B4 029:332 JLINK_WriteReg(R9, 0x2000016C)  returns 0x00 (0000ms, 0076ms total)
T44B4 029:332 JLINK_WriteReg(R10, 0x00000000)  returns 0x00 (0000ms, 0076ms total)
T44B4 029:332 JLINK_WriteReg(R11, 0x00000000)  returns 0x00 (0000ms, 0076ms total)
T44B4 029:332 JLINK_WriteReg(R12, 0x00000000)  returns 0x00 (0000ms, 0076ms total)
T44B4 029:332 JLINK_WriteReg(R13 (SP), 0x20001000)  returns 0x00 (0000ms, 0076ms total)
T44B4 029:332 JLINK_WriteReg(R14, 0x20000001)  returns 0x00 (0000ms, 0076ms total)
T44B4 029:332 JLINK_WriteReg(R15 (PC), 0x200000B8)  returns 0x00 (0000ms, 0076ms total)
T44B4 029:332 JLINK_WriteReg(XPSR, 0x01000000)  returns 0x00 (0000ms, 0076ms total)
T44B4 029:332 JLINK_WriteReg(MSP, 0x20001000)  returns 0x00 (0000ms, 0076ms total)
T44B4 029:332 JLINK_WriteReg(PSP, 0x20001000)  returns 0x00 (0000ms, 0076ms total)
T44B4 029:332 JLINK_WriteReg(CFBP, 0x00000000)  returns 0x00 (0000ms, 0076ms total)
T44B4 029:332 JLINK_SetBPEx(Addr = 0x20000000, Type = 0xFFFFFFF2)  returns 0x00000005 (0000ms, 0076ms total)
T44B4 029:332 JLINK_Go() (0001ms, 0077ms total)
T44B4 029:333 JLINK_IsHalted()  returns FALSE (0000ms, 0077ms total)
T44B4 029:335 JLINK_IsHalted()  returns FALSE (0000ms, 0077ms total)
T44B4 029:336 JLINK_IsHalted()  returns FALSE (0000ms, 0077ms total)
T44B4 029:338 JLINK_IsHalted()  returns FALSE (0000ms, 0077ms total)
T44B4 029:339 JLINK_IsHalted()  returns FALSE (0000ms, 0077ms total)
T44B4 029:341 JLINK_IsHalted()  returns FALSE (0000ms, 0077ms total)
T44B4 029:342 JLINK_IsHalted()  returns FALSE (0000ms, 0077ms total)
T44B4 029:344 JLINK_IsHalted()  returns FALSE (0000ms, 0077ms total)
T44B4 029:346 JLINK_IsHalted()  returns FALSE (0000ms, 0077ms total)
T44B4 029:347 JLINK_IsHalted()  returns FALSE (0000ms, 0077ms total)
T44B4 029:349 JLINK_IsHalted()  returns FALSE (0000ms, 0077ms total)
T44B4 029:351 JLINK_IsHalted()  returns FALSE (0000ms, 0077ms total)
T44B4 029:352 JLINK_IsHalted()  returns FALSE (0000ms, 0077ms total)
T44B4 029:354 JLINK_IsHalted()  returns FALSE (0000ms, 0077ms total)
T44B4 029:355 JLINK_IsHalted() -- CPU_ReadMem(2 bytes @ 0x20000000)  returns TRUE (0002ms, 0079ms total)
T44B4 029:357 JLINK_ReadReg(R15 (PC))  returns 0x20000000 (0000ms, 0077ms total)
T44B4 029:357 JLINK_ClrBPEx(BPHandle = 0x00000005)  returns 0x00 (0000ms, 0077ms total)
T44B4 029:357 JLINK_ReadReg(R0)  returns 0x00000000 (0000ms, 0077ms total)
T44B4 029:357 JLINK_WriteReg(R0, 0x08000800)  returns 0x00 (0000ms, 0077ms total)
T44B4 029:357 JLINK_WriteReg(R1, 0x00000400)  returns 0x00 (0000ms, 0077ms total)
T44B4 029:357 JLINK_WriteReg(R2, 0x000000FF)  returns 0x00 (0000ms, 0077ms total)
T44B4 029:358 JLINK_WriteReg(R3, 0x00000000)  returns 0x00 (0000ms, 0078ms total)
T44B4 029:358 JLINK_WriteReg(R4, 0x00000000)  returns 0x00 (0000ms, 0078ms total)
T44B4 029:358 JLINK_WriteReg(R5, 0x00000000)  returns 0x00 (0000ms, 0078ms total)
T44B4 029:358 JLINK_WriteReg(R6, 0x00000000)  returns 0x00 (0000ms, 0078ms total)
T44B4 029:358 JLINK_WriteReg(R7, 0x00000000)  returns 0x00 (0000ms, 0078ms total)
T44B4 029:358 JLINK_WriteReg(R8, 0x00000000)  returns 0x00 (0000ms, 0078ms total)
T44B4 029:358 JLINK_WriteReg(R9, 0x2000016C)  returns 0x00 (0000ms, 0078ms total)
T44B4 029:358 JLINK_WriteReg(R10, 0x00000000)  returns 0x00 (0000ms, 0078ms total)
T44B4 029:358 JLINK_WriteReg(R11, 0x00000000)  returns 0x00 (0000ms, 0078ms total)
T44B4 029:358 JLINK_WriteReg(R12, 0x00000000)  returns 0x00 (0000ms, 0078ms total)
T44B4 029:358 JLINK_WriteReg(R13 (SP), 0x20001000)  returns 0x00 (0000ms, 0078ms total)
T44B4 029:358 JLINK_WriteReg(R14, 0x20000001)  returns 0x00 (0000ms, 0078ms total)
T44B4 029:358 JLINK_WriteReg(R15 (PC), 0x20000020)  returns 0x00 (0000ms, 0078ms total)
T44B4 029:358 JLINK_WriteReg(XPSR, 0x01000000)  returns 0x00 (0000ms, 0078ms total)
T44B4 029:358 JLINK_WriteReg(MSP, 0x20001000)  returns 0x00 (0000ms, 0078ms total)
T44B4 029:358 JLINK_WriteReg(PSP, 0x20001000)  returns 0x00 (0000ms, 0078ms total)
T44B4 029:358 JLINK_WriteReg(CFBP, 0x00000000)  returns 0x00 (0000ms, 0078ms total)
T44B4 029:358 JLINK_SetBPEx(Addr = 0x20000000, Type = 0xFFFFFFF2)  returns 0x00000006 (0000ms, 0078ms total)
T44B4 029:358 JLINK_Go() (0001ms, 0079ms total)
T44B4 029:359 JLINK_IsHalted() -- CPU_ReadMem(2 bytes @ 0x20000000)  returns TRUE (0002ms, 0081ms total)
T44B4 029:361 JLINK_ReadReg(R15 (PC))  returns 0x20000000 (0000ms, 0079ms total)
T44B4 029:361 JLINK_ClrBPEx(BPHandle = 0x00000006)  returns 0x00 (0000ms, 0079ms total)
T44B4 029:361 JLINK_ReadReg(R0)  returns 0x00000001 (0000ms, 0079ms total)
T44B4 029:361 JLINK_WriteReg(R0, 0x08000800)  returns 0x00 (0000ms, 0079ms total)
T44B4 029:361 JLINK_WriteReg(R1, 0x00000400)  returns 0x00 (0000ms, 0079ms total)
T44B4 029:361 JLINK_WriteReg(R2, 0x000000FF)  returns 0x00 (0000ms, 0079ms total)
T44B4 029:361 JLINK_WriteReg(R3, 0x00000000)  returns 0x00 (0000ms, 0079ms total)
T44B4 029:361 JLINK_WriteReg(R4, 0x00000000)  returns 0x00 (0000ms, 0079ms total)
T44B4 029:361 JLINK_WriteReg(R5, 0x00000000)  returns 0x00 (0000ms, 0079ms total)
T44B4 029:361 JLINK_WriteReg(R6, 0x00000000)  returns 0x00 (0000ms, 0079ms total)
T44B4 029:361 JLINK_WriteReg(R7, 0x00000000)  returns 0x00 (0000ms, 0079ms total)
T44B4 029:361 JLINK_WriteReg(R8, 0x00000000)  returns 0x00 (0000ms, 0079ms total)
T44B4 029:361 JLINK_WriteReg(R9, 0x2000016C)  returns 0x00 (0000ms, 0079ms total)
T44B4 029:361 JLINK_WriteReg(R10, 0x00000000)  returns 0x00 (0000ms, 0079ms total)
T44B4 029:361 JLINK_WriteReg(R11, 0x00000000)  returns 0x00 (0000ms, 0079ms total)
T44B4 029:361 JLINK_WriteReg(R12, 0x00000000)  returns 0x00 (0000ms, 0079ms total)
T44B4 029:361 JLINK_WriteReg(R13 (SP), 0x20001000)  returns 0x00 (0000ms, 0079ms total)
T44B4 029:361 JLINK_WriteReg(R14, 0x20000001)  returns 0x00 (0000ms, 0079ms total)
T44B4 029:361 JLINK_WriteReg(R15 (PC), 0x200000B8)  returns 0x00 (0000ms, 0079ms total)
T44B4 029:361 JLINK_WriteReg(XPSR, 0x01000000)  returns 0x00 (0000ms, 0079ms total)
T44B4 029:361 JLINK_WriteReg(MSP, 0x20001000)  returns 0x00 (0000ms, 0079ms total)
T44B4 029:361 JLINK_WriteReg(PSP, 0x20001000)  returns 0x00 (0000ms, 0079ms total)
T44B4 029:361 JLINK_WriteReg(CFBP, 0x00000000)  returns 0x00 (0000ms, 0079ms total)
T44B4 029:361 JLINK_SetBPEx(Addr = 0x20000000, Type = 0xFFFFFFF2)  returns 0x00000007 (0000ms, 0079ms total)
T44B4 029:361 JLINK_Go() (0001ms, 0080ms total)
T44B4 029:362 JLINK_IsHalted()  returns FALSE (0000ms, 0080ms total)
T44B4 029:366 JLINK_IsHalted()  returns FALSE (0000ms, 0080ms total)
T44B4 029:367 JLINK_IsHalted()  returns FALSE (0000ms, 0080ms total)
T44B4 029:369 JLINK_IsHalted()  returns FALSE (0000ms, 0080ms total)
T44B4 029:370 JLINK_IsHalted()  returns FALSE (0000ms, 0080ms total)
T44B4 029:372 JLINK_IsHalted()  returns FALSE (0000ms, 0080ms total)
T44B4 029:374 JLINK_IsHalted()  returns FALSE (0000ms, 0080ms total)
T44B4 029:376 JLINK_IsHalted()  returns FALSE (0000ms, 0080ms total)
T44B4 029:377 JLINK_IsHalted()  returns FALSE (0000ms, 0080ms total)
T44B4 029:379 JLINK_IsHalted()  returns FALSE (0000ms, 0080ms total)
T44B4 029:380 JLINK_IsHalted()  returns FALSE (0000ms, 0080ms total)
T44B4 029:382 JLINK_IsHalted()  returns FALSE (0000ms, 0080ms total)
T44B4 029:383 JLINK_IsHalted()  returns FALSE (0000ms, 0080ms total)
T44B4 029:385 JLINK_IsHalted() -- CPU_ReadMem(2 bytes @ 0x20000000)  returns TRUE (0001ms, 0081ms total)
T44B4 029:386 JLINK_ReadReg(R15 (PC))  returns 0x20000000 (0000ms, 0080ms total)
T44B4 029:386 JLINK_ClrBPEx(BPHandle = 0x00000007)  returns 0x00 (0000ms, 0080ms total)
T44B4 029:386 JLINK_ReadReg(R0)  returns 0x00000000 (0000ms, 0080ms total)
T44B4 029:387 JLINK_WriteReg(R0, 0x08000C00)  returns 0x00 (0000ms, 0080ms total)
T44B4 029:387 JLINK_WriteReg(R1, 0x00000400)  returns 0x00 (0000ms, 0080ms total)
T44B4 029:387 JLINK_WriteReg(R2, 0x000000FF)  returns 0x00 (0000ms, 0080ms total)
T44B4 029:387 JLINK_WriteReg(R3, 0x00000000)  returns 0x00 (0000ms, 0080ms total)
T44B4 029:387 JLINK_WriteReg(R4, 0x00000000)  returns 0x00 (0000ms, 0080ms total)
T44B4 029:387 JLINK_WriteReg(R5, 0x00000000)  returns 0x00 (0000ms, 0080ms total)
T44B4 029:387 JLINK_WriteReg(R6, 0x00000000)  returns 0x00 (0000ms, 0080ms total)
T44B4 029:387 JLINK_WriteReg(R7, 0x00000000)  returns 0x00 (0000ms, 0080ms total)
T44B4 029:387 JLINK_WriteReg(R8, 0x00000000)  returns 0x00 (0000ms, 0080ms total)
T44B4 029:387 JLINK_WriteReg(R9, 0x2000016C)  returns 0x00 (0000ms, 0080ms total)
T44B4 029:387 JLINK_WriteReg(R10, 0x00000000)  returns 0x00 (0000ms, 0080ms total)
T44B4 029:387 JLINK_WriteReg(R11, 0x00000000)  returns 0x00 (0000ms, 0080ms total)
T44B4 029:387 JLINK_WriteReg(R12, 0x00000000)  returns 0x00 (0000ms, 0080ms total)
T44B4 029:387 JLINK_WriteReg(R13 (SP), 0x20001000)  returns 0x00 (0000ms, 0080ms total)
T44B4 029:387 JLINK_WriteReg(R14, 0x20000001)  returns 0x00 (0000ms, 0080ms total)
T44B4 029:387 JLINK_WriteReg(R15 (PC), 0x20000020)  returns 0x00 (0000ms, 0080ms total)
T44B4 029:387 JLINK_WriteReg(XPSR, 0x01000000)  returns 0x00 (0000ms, 0080ms total)
T44B4 029:387 JLINK_WriteReg(MSP, 0x20001000)  returns 0x00 (0000ms, 0080ms total)
T44B4 029:387 JLINK_WriteReg(PSP, 0x20001000)  returns 0x00 (0000ms, 0080ms total)
T44B4 029:387 JLINK_WriteReg(CFBP, 0x00000000)  returns 0x00 (0000ms, 0080ms total)
T44B4 029:387 JLINK_SetBPEx(Addr = 0x20000000, Type = 0xFFFFFFF2)  returns 0x00000008 (0000ms, 0080ms total)
T44B4 029:387 JLINK_Go() (0001ms, 0081ms total)
T44B4 029:388 JLINK_IsHalted() -- CPU_ReadMem(2 bytes @ 0x20000000)  returns TRUE (0002ms, 0083ms total)
T44B4 029:390 JLINK_ReadReg(R15 (PC))  returns 0x20000000 (0000ms, 0081ms total)
T44B4 029:390 JLINK_ClrBPEx(BPHandle = 0x00000008)  returns 0x00 (0000ms, 0081ms total)
T44B4 029:390 JLINK_ReadReg(R0)  returns 0x00000001 (0000ms, 0081ms total)
T44B4 029:390 JLINK_WriteReg(R0, 0x08000C00)  returns 0x00 (0000ms, 0081ms total)
T44B4 029:390 JLINK_WriteReg(R1, 0x00000400)  returns 0x00 (0000ms, 0081ms total)
T44B4 029:390 JLINK_WriteReg(R2, 0x000000FF)  returns 0x00 (0000ms, 0081ms total)
T44B4 029:390 JLINK_WriteReg(R3, 0x00000000)  returns 0x00 (0000ms, 0081ms total)
T44B4 029:390 JLINK_WriteReg(R4, 0x00000000)  returns 0x00 (0000ms, 0081ms total)
T44B4 029:390 JLINK_WriteReg(R5, 0x00000000)  returns 0x00 (0000ms, 0081ms total)
T44B4 029:390 JLINK_WriteReg(R6, 0x00000000)  returns 0x00 (0000ms, 0081ms total)
T44B4 029:390 JLINK_WriteReg(R7, 0x00000000)  returns 0x00 (0000ms, 0081ms total)
T44B4 029:390 JLINK_WriteReg(R8, 0x00000000)  returns 0x00 (0000ms, 0081ms total)
T44B4 029:390 JLINK_WriteReg(R9, 0x2000016C)  returns 0x00 (0000ms, 0081ms total)
T44B4 029:390 JLINK_WriteReg(R10, 0x00000000)  returns 0x00 (0000ms, 0081ms total)
T44B4 029:390 JLINK_WriteReg(R11, 0x00000000)  returns 0x00 (0000ms, 0081ms total)
T44B4 029:390 JLINK_WriteReg(R12, 0x00000000)  returns 0x00 (0000ms, 0081ms total)
T44B4 029:390 JLINK_WriteReg(R13 (SP), 0x20001000)  returns 0x00 (0000ms, 0081ms total)
T44B4 029:390 JLINK_WriteReg(R14, 0x20000001)  returns 0x00 (0000ms, 0081ms total)
T44B4 029:390 JLINK_WriteReg(R15 (PC), 0x200000B8)  returns 0x00 (0000ms, 0081ms total)
T44B4 029:390 JLINK_WriteReg(XPSR, 0x01000000)  returns 0x00 (0000ms, 0081ms total)
T44B4 029:390 JLINK_WriteReg(MSP, 0x20001000)  returns 0x00 (0000ms, 0081ms total)
T44B4 029:390 JLINK_WriteReg(PSP, 0x20001000)  returns 0x00 (0000ms, 0081ms total)
T44B4 029:390 JLINK_WriteReg(CFBP, 0x00000000)  returns 0x00 (0000ms, 0081ms total)
T44B4 029:390 JLINK_SetBPEx(Addr = 0x20000000, Type = 0xFFFFFFF2)  returns 0x00000009 (0000ms, 0081ms total)
T44B4 029:390 JLINK_Go() (0001ms, 0082ms total)
T44B4 029:391 JLINK_IsHalted()  returns FALSE (0000ms, 0082ms total)
T44B4 029:395 JLINK_IsHalted()  returns FALSE (0000ms, 0082ms total)
T44B4 029:397 JLINK_IsHalted()  returns FALSE (0000ms, 0082ms total)
T44B4 029:398 JLINK_IsHalted()  returns FALSE (0000ms, 0082ms total)
T44B4 029:400 JLINK_IsHalted()  returns FALSE (0000ms, 0082ms total)
T44B4 029:401 JLINK_IsHalted()  returns FALSE (0000ms, 0082ms total)
T44B4 029:403 JLINK_IsHalted()  returns FALSE (0000ms, 0082ms total)
T44B4 029:404 JLINK_IsHalted()  returns FALSE (0000ms, 0082ms total)
T44B4 029:406 JLINK_IsHalted()  returns FALSE (0000ms, 0082ms total)
T44B4 029:408 JLINK_IsHalted()  returns FALSE (0000ms, 0082ms total)
T44B4 029:409 JLINK_IsHalted()  returns FALSE (0000ms, 0082ms total)
T44B4 029:414 JLINK_IsHalted() -- CPU_ReadMem(2 bytes @ 0x20000000)  returns TRUE (0001ms, 0083ms total)
T44B4 029:415 JLINK_ReadReg(R15 (PC))  returns 0x20000000 (0000ms, 0082ms total)
T44B4 029:415 JLINK_ClrBPEx(BPHandle = 0x00000009)  returns 0x00 (0000ms, 0082ms total)
T44B4 029:415 JLINK_ReadReg(R0)  returns 0x00000000 (0000ms, 0082ms total)
T44B4 029:416 JLINK_WriteReg(R0, 0x08001000)  returns 0x00 (0000ms, 0082ms total)
T44B4 029:416 JLINK_WriteReg(R1, 0x00000400)  returns 0x00 (0000ms, 0082ms total)
T44B4 029:416 JLINK_WriteReg(R2, 0x000000FF)  returns 0x00 (0000ms, 0082ms total)
T44B4 029:416 JLINK_WriteReg(R3, 0x00000000)  returns 0x00 (0000ms, 0082ms total)
T44B4 029:416 JLINK_WriteReg(R4, 0x00000000)  returns 0x00 (0000ms, 0082ms total)
T44B4 029:416 JLINK_WriteReg(R5, 0x00000000)  returns 0x00 (0000ms, 0082ms total)
T44B4 029:416 JLINK_WriteReg(R6, 0x00000000)  returns 0x00 (0000ms, 0082ms total)
T44B4 029:416 JLINK_WriteReg(R7, 0x00000000)  returns 0x00 (0000ms, 0082ms total)
T44B4 029:416 JLINK_WriteReg(R8, 0x00000000)  returns 0x00 (0000ms, 0082ms total)
T44B4 029:416 JLINK_WriteReg(R9, 0x2000016C)  returns 0x00 (0000ms, 0082ms total)
T44B4 029:416 JLINK_WriteReg(R10, 0x00000000)  returns 0x00 (0000ms, 0082ms total)
T44B4 029:416 JLINK_WriteReg(R11, 0x00000000)  returns 0x00 (0000ms, 0082ms total)
T44B4 029:416 JLINK_WriteReg(R12, 0x00000000)  returns 0x00 (0000ms, 0082ms total)
T44B4 029:416 JLINK_WriteReg(R13 (SP), 0x20001000)  returns 0x00 (0000ms, 0082ms total)
T44B4 029:416 JLINK_WriteReg(R14, 0x20000001)  returns 0x00 (0000ms, 0082ms total)
T44B4 029:416 JLINK_WriteReg(R15 (PC), 0x20000020)  returns 0x00 (0000ms, 0082ms total)
T44B4 029:416 JLINK_WriteReg(XPSR, 0x01000000)  returns 0x00 (0000ms, 0082ms total)
T44B4 029:416 JLINK_WriteReg(MSP, 0x20001000)  returns 0x00 (0000ms, 0082ms total)
T44B4 029:416 JLINK_WriteReg(PSP, 0x20001000)  returns 0x00 (0000ms, 0082ms total)
T44B4 029:416 JLINK_WriteReg(CFBP, 0x00000000)  returns 0x00 (0000ms, 0082ms total)
T44B4 029:416 JLINK_SetBPEx(Addr = 0x20000000, Type = 0xFFFFFFF2)  returns 0x0000000A (0000ms, 0082ms total)
T44B4 029:416 JLINK_Go() (0001ms, 0083ms total)
T44B4 029:417 JLINK_IsHalted() -- CPU_ReadMem(2 bytes @ 0x20000000)  returns TRUE (0002ms, 0085ms total)
T44B4 029:419 JLINK_ReadReg(R15 (PC))  returns 0x20000000 (0000ms, 0083ms total)
T44B4 029:419 JLINK_ClrBPEx(BPHandle = 0x0000000A)  returns 0x00 (0000ms, 0083ms total)
T44B4 029:419 JLINK_ReadReg(R0)  returns 0x00000001 (0000ms, 0083ms total)
T44B4 029:419 JLINK_WriteReg(R0, 0x08001000)  returns 0x00 (0000ms, 0083ms total)
T44B4 029:419 JLINK_WriteReg(R1, 0x00000400)  returns 0x00 (0000ms, 0083ms total)
T44B4 029:419 JLINK_WriteReg(R2, 0x000000FF)  returns 0x00 (0000ms, 0083ms total)
T44B4 029:419 JLINK_WriteReg(R3, 0x00000000)  returns 0x00 (0000ms, 0083ms total)
T44B4 029:419 JLINK_WriteReg(R4, 0x00000000)  returns 0x00 (0000ms, 0083ms total)
T44B4 029:419 JLINK_WriteReg(R5, 0x00000000)  returns 0x00 (0000ms, 0083ms total)
T44B4 029:419 JLINK_WriteReg(R6, 0x00000000)  returns 0x00 (0000ms, 0083ms total)
T44B4 029:419 JLINK_WriteReg(R7, 0x00000000)  returns 0x00 (0000ms, 0083ms total)
T44B4 029:419 JLINK_WriteReg(R8, 0x00000000)  returns 0x00 (0000ms, 0083ms total)
T44B4 029:419 JLINK_WriteReg(R9, 0x2000016C)  returns 0x00 (0000ms, 0083ms total)
T44B4 029:419 JLINK_WriteReg(R10, 0x00000000)  returns 0x00 (0000ms, 0083ms total)
T44B4 029:419 JLINK_WriteReg(R11, 0x00000000)  returns 0x00 (0000ms, 0083ms total)
T44B4 029:419 JLINK_WriteReg(R12, 0x00000000)  returns 0x00 (0000ms, 0083ms total)
T44B4 029:419 JLINK_WriteReg(R13 (SP), 0x20001000)  returns 0x00 (0000ms, 0083ms total)
T44B4 029:419 JLINK_WriteReg(R14, 0x20000001)  returns 0x00 (0000ms, 0083ms total)
T44B4 029:419 JLINK_WriteReg(R15 (PC), 0x200000B8)  returns 0x00 (0000ms, 0083ms total)
T44B4 029:419 JLINK_WriteReg(XPSR, 0x01000000)  returns 0x00 (0000ms, 0083ms total)
T44B4 029:419 JLINK_WriteReg(MSP, 0x20001000)  returns 0x00 (0000ms, 0083ms total)
T44B4 029:419 JLINK_WriteReg(PSP, 0x20001000)  returns 0x00 (0000ms, 0083ms total)
T44B4 029:419 JLINK_WriteReg(CFBP, 0x00000000)  returns 0x00 (0000ms, 0083ms total)
T44B4 029:419 JLINK_SetBPEx(Addr = 0x20000000, Type = 0xFFFFFFF2)  returns 0x0000000B (0000ms, 0083ms total)
T44B4 029:419 JLINK_Go() (0001ms, 0084ms total)
T44B4 029:420 JLINK_IsHalted()  returns FALSE (0000ms, 0084ms total)
T44B4 029:423 JLINK_IsHalted()  returns FALSE (0000ms, 0084ms total)
T44B4 029:424 JLINK_IsHalted()  returns FALSE (0000ms, 0084ms total)
T44B4 029:430 JLINK_IsHalted()  returns FALSE (0000ms, 0084ms total)
T44B4 029:432 JLINK_IsHalted()  returns FALSE (0000ms, 0084ms total)
T44B4 029:436 JLINK_IsHalted()  returns FALSE (0000ms, 0084ms total)
T44B4 029:438 JLINK_IsHalted()  returns FALSE (0000ms, 0084ms total)
T44B4 029:439 JLINK_IsHalted()  returns FALSE (0000ms, 0084ms total)
T44B4 029:444 JLINK_IsHalted() -- CPU_ReadMem(2 bytes @ 0x20000000)  returns TRUE (0001ms, 0085ms total)
T44B4 029:445 JLINK_ReadReg(R15 (PC))  returns 0x20000000 (0000ms, 0084ms total)
T44B4 029:445 JLINK_ClrBPEx(BPHandle = 0x0000000B)  returns 0x00 (0000ms, 0084ms total)
T44B4 029:445 JLINK_ReadReg(R0)  returns 0x00000000 (0000ms, 0084ms total)
T44B4 029:446 JLINK_WriteReg(R0, 0x08001400)  returns 0x00 (0000ms, 0084ms total)
T44B4 029:446 JLINK_WriteReg(R1, 0x00000400)  returns 0x00 (0000ms, 0084ms total)
T44B4 029:446 JLINK_WriteReg(R2, 0x000000FF)  returns 0x00 (0000ms, 0084ms total)
T44B4 029:446 JLINK_WriteReg(R3, 0x00000000)  returns 0x00 (0000ms, 0084ms total)
T44B4 029:446 JLINK_WriteReg(R4, 0x00000000)  returns 0x00 (0000ms, 0084ms total)
T44B4 029:446 JLINK_WriteReg(R5, 0x00000000)  returns 0x00 (0000ms, 0084ms total)
T44B4 029:446 JLINK_WriteReg(R6, 0x00000000)  returns 0x00 (0000ms, 0084ms total)
T44B4 029:446 JLINK_WriteReg(R7, 0x00000000)  returns 0x00 (0000ms, 0084ms total)
T44B4 029:446 JLINK_WriteReg(R8, 0x00000000)  returns 0x00 (0000ms, 0084ms total)
T44B4 029:446 JLINK_WriteReg(R9, 0x2000016C)  returns 0x00 (0000ms, 0084ms total)
T44B4 029:446 JLINK_WriteReg(R10, 0x00000000)  returns 0x00 (0000ms, 0084ms total)
T44B4 029:446 JLINK_WriteReg(R11, 0x00000000)  returns 0x00 (0000ms, 0084ms total)
T44B4 029:446 JLINK_WriteReg(R12, 0x00000000)  returns 0x00 (0000ms, 0084ms total)
T44B4 029:446 JLINK_WriteReg(R13 (SP), 0x20001000)  returns 0x00 (0000ms, 0084ms total)
T44B4 029:446 JLINK_WriteReg(R14, 0x20000001)  returns 0x00 (0000ms, 0084ms total)
T44B4 029:446 JLINK_WriteReg(R15 (PC), 0x20000020)  returns 0x00 (0000ms, 0084ms total)
T44B4 029:446 JLINK_WriteReg(XPSR, 0x01000000)  returns 0x00 (0000ms, 0084ms total)
T44B4 029:446 JLINK_WriteReg(MSP, 0x20001000)  returns 0x00 (0000ms, 0084ms total)
T44B4 029:446 JLINK_WriteReg(PSP, 0x20001000)  returns 0x00 (0000ms, 0084ms total)
T44B4 029:446 JLINK_WriteReg(CFBP, 0x00000000)  returns 0x00 (0000ms, 0084ms total)
T44B4 029:446 JLINK_SetBPEx(Addr = 0x20000000, Type = 0xFFFFFFF2)  returns 0x0000000C (0000ms, 0084ms total)
T44B4 029:446 JLINK_Go() (0001ms, 0085ms total)
T44B4 029:447 JLINK_IsHalted() -- CPU_ReadMem(2 bytes @ 0x20000000)  returns TRUE (0002ms, 0087ms total)
T44B4 029:449 JLINK_ReadReg(R15 (PC))  returns 0x20000000 (0000ms, 0085ms total)
T44B4 029:449 JLINK_ClrBPEx(BPHandle = 0x0000000C)  returns 0x00 (0000ms, 0085ms total)
T44B4 029:449 JLINK_ReadReg(R0)  returns 0x00000001 (0000ms, 0085ms total)
T44B4 029:449 JLINK_WriteReg(R0, 0x08001400)  returns 0x00 (0000ms, 0085ms total)
T44B4 029:449 JLINK_WriteReg(R1, 0x00000400)  returns 0x00 (0000ms, 0085ms total)
T44B4 029:449 JLINK_WriteReg(R2, 0x000000FF)  returns 0x00 (0000ms, 0085ms total)
T44B4 029:449 JLINK_WriteReg(R3, 0x00000000)  returns 0x00 (0000ms, 0085ms total)
T44B4 029:449 JLINK_WriteReg(R4, 0x00000000)  returns 0x00 (0000ms, 0085ms total)
T44B4 029:449 JLINK_WriteReg(R5, 0x00000000)  returns 0x00 (0000ms, 0085ms total)
T44B4 029:449 JLINK_WriteReg(R6, 0x00000000)  returns 0x00 (0000ms, 0085ms total)
T44B4 029:449 JLINK_WriteReg(R7, 0x00000000)  returns 0x00 (0000ms, 0085ms total)
T44B4 029:449 JLINK_WriteReg(R8, 0x00000000)  returns 0x00 (0000ms, 0085ms total)
T44B4 029:449 JLINK_WriteReg(R9, 0x2000016C)  returns 0x00 (0000ms, 0085ms total)
T44B4 029:449 JLINK_WriteReg(R10, 0x00000000)  returns 0x00 (0000ms, 0085ms total)
T44B4 029:449 JLINK_WriteReg(R11, 0x00000000)  returns 0x00 (0000ms, 0085ms total)
T44B4 029:449 JLINK_WriteReg(R12, 0x00000000)  returns 0x00 (0000ms, 0085ms total)
T44B4 029:449 JLINK_WriteReg(R13 (SP), 0x20001000)  returns 0x00 (0000ms, 0085ms total)
T44B4 029:449 JLINK_WriteReg(R14, 0x20000001)  returns 0x00 (0000ms, 0085ms total)
T44B4 029:449 JLINK_WriteReg(R15 (PC), 0x200000B8)  returns 0x00 (0000ms, 0085ms total)
T44B4 029:449 JLINK_WriteReg(XPSR, 0x01000000)  returns 0x00 (0000ms, 0085ms total)
T44B4 029:449 JLINK_WriteReg(MSP, 0x20001000)  returns 0x00 (0000ms, 0085ms total)
T44B4 029:449 JLINK_WriteReg(PSP, 0x20001000)  returns 0x00 (0000ms, 0085ms total)
T44B4 029:449 JLINK_WriteReg(CFBP, 0x00000000)  returns 0x00 (0000ms, 0085ms total)
T44B4 029:449 JLINK_SetBPEx(Addr = 0x20000000, Type = 0xFFFFFFF2)  returns 0x0000000D (0000ms, 0085ms total)
T44B4 029:449 JLINK_Go() (0001ms, 0086ms total)
T44B4 029:450 JLINK_IsHalted()  returns FALSE (0000ms, 0086ms total)
T44B4 029:455 JLINK_IsHalted()  returns FALSE (0000ms, 0086ms total)
T44B4 029:460 JLINK_IsHalted()  returns FALSE (0000ms, 0086ms total)
T44B4 029:462 JLINK_IsHalted()  returns FALSE (0000ms, 0086ms total)
T44B4 029:464 JLINK_IsHalted()  returns FALSE (0000ms, 0086ms total)
T44B4 029:467 JLINK_IsHalted()  returns FALSE (0000ms, 0086ms total)
T44B4 029:468 JLINK_IsHalted()  returns FALSE (0000ms, 0086ms total)
T44B4 029:470 JLINK_IsHalted()  returns FALSE (0000ms, 0086ms total)
T44B4 029:472 JLINK_IsHalted()  returns FALSE (0000ms, 0086ms total)
T44B4 029:473 JLINK_IsHalted() -- CPU_ReadMem(2 bytes @ 0x20000000)  returns TRUE (0002ms, 0088ms total)
T44B4 029:475 JLINK_ReadReg(R15 (PC))  returns 0x20000000 (0000ms, 0086ms total)
T44B4 029:475 JLINK_ClrBPEx(BPHandle = 0x0000000D)  returns 0x00 (0000ms, 0086ms total)
T44B4 029:475 JLINK_ReadReg(R0)  returns 0x00000000 (0000ms, 0086ms total)
T44B4 029:476 JLINK_WriteReg(R0, 0x08001800)  returns 0x00 (0000ms, 0086ms total)
T44B4 029:476 JLINK_WriteReg(R1, 0x00000400)  returns 0x00 (0000ms, 0086ms total)
T44B4 029:476 JLINK_WriteReg(R2, 0x000000FF)  returns 0x00 (0000ms, 0086ms total)
T44B4 029:476 JLINK_WriteReg(R3, 0x00000000)  returns 0x00 (0000ms, 0086ms total)
T44B4 029:476 JLINK_WriteReg(R4, 0x00000000)  returns 0x00 (0000ms, 0086ms total)
T44B4 029:476 JLINK_WriteReg(R5, 0x00000000)  returns 0x00 (0000ms, 0086ms total)
T44B4 029:476 JLINK_WriteReg(R6, 0x00000000)  returns 0x00 (0000ms, 0086ms total)
T44B4 029:476 JLINK_WriteReg(R7, 0x00000000)  returns 0x00 (0000ms, 0086ms total)
T44B4 029:476 JLINK_WriteReg(R8, 0x00000000)  returns 0x00 (0000ms, 0086ms total)
T44B4 029:476 JLINK_WriteReg(R9, 0x2000016C)  returns 0x00 (0000ms, 0086ms total)
T44B4 029:476 JLINK_WriteReg(R10, 0x00000000)  returns 0x00 (0000ms, 0086ms total)
T44B4 029:476 JLINK_WriteReg(R11, 0x00000000)  returns 0x00 (0000ms, 0086ms total)
T44B4 029:476 JLINK_WriteReg(R12, 0x00000000)  returns 0x00 (0000ms, 0086ms total)
T44B4 029:476 JLINK_WriteReg(R13 (SP), 0x20001000)  returns 0x00 (0000ms, 0086ms total)
T44B4 029:476 JLINK_WriteReg(R14, 0x20000001)  returns 0x00 (0000ms, 0086ms total)
T44B4 029:476 JLINK_WriteReg(R15 (PC), 0x20000020)  returns 0x00 (0000ms, 0086ms total)
T44B4 029:476 JLINK_WriteReg(XPSR, 0x01000000)  returns 0x00 (0000ms, 0086ms total)
T44B4 029:476 JLINK_WriteReg(MSP, 0x20001000)  returns 0x00 (0000ms, 0086ms total)
T44B4 029:476 JLINK_WriteReg(PSP, 0x20001000)  returns 0x00 (0000ms, 0086ms total)
T44B4 029:476 JLINK_WriteReg(CFBP, 0x00000000)  returns 0x00 (0000ms, 0086ms total)
T44B4 029:476 JLINK_SetBPEx(Addr = 0x20000000, Type = 0xFFFFFFF2)  returns 0x0000000E (0000ms, 0086ms total)
T44B4 029:476 JLINK_Go() (0001ms, 0087ms total)
T44B4 029:477 JLINK_IsHalted() -- CPU_ReadMem(2 bytes @ 0x20000000)  returns TRUE (0002ms, 0089ms total)
T44B4 029:479 JLINK_ReadReg(R15 (PC))  returns 0x20000000 (0000ms, 0087ms total)
T44B4 029:479 JLINK_ClrBPEx(BPHandle = 0x0000000E)  returns 0x00 (0000ms, 0087ms total)
T44B4 029:479 JLINK_ReadReg(R0)  returns 0x00000001 (0000ms, 0087ms total)
T44B4 029:479 JLINK_WriteReg(R0, 0x08001800)  returns 0x00 (0000ms, 0087ms total)
T44B4 029:479 JLINK_WriteReg(R1, 0x00000400)  returns 0x00 (0000ms, 0087ms total)
T44B4 029:479 JLINK_WriteReg(R2, 0x000000FF)  returns 0x00 (0000ms, 0087ms total)
T44B4 029:479 JLINK_WriteReg(R3, 0x00000000)  returns 0x00 (0000ms, 0087ms total)
T44B4 029:479 JLINK_WriteReg(R4, 0x00000000)  returns 0x00 (0000ms, 0087ms total)
T44B4 029:479 JLINK_WriteReg(R5, 0x00000000)  returns 0x00 (0000ms, 0087ms total)
T44B4 029:479 JLINK_WriteReg(R6, 0x00000000)  returns 0x00 (0000ms, 0087ms total)
T44B4 029:479 JLINK_WriteReg(R7, 0x00000000)  returns 0x00 (0000ms, 0087ms total)
T44B4 029:479 JLINK_WriteReg(R8, 0x00000000)  returns 0x00 (0000ms, 0087ms total)
T44B4 029:479 JLINK_WriteReg(R9, 0x2000016C)  returns 0x00 (0000ms, 0087ms total)
T44B4 029:479 JLINK_WriteReg(R10, 0x00000000)  returns 0x00 (0000ms, 0087ms total)
T44B4 029:479 JLINK_WriteReg(R11, 0x00000000)  returns 0x00 (0000ms, 0087ms total)
T44B4 029:479 JLINK_WriteReg(R12, 0x00000000)  returns 0x00 (0000ms, 0087ms total)
T44B4 029:479 JLINK_WriteReg(R13 (SP), 0x20001000)  returns 0x00 (0000ms, 0087ms total)
T44B4 029:479 JLINK_WriteReg(R14, 0x20000001)  returns 0x00 (0000ms, 0087ms total)
T44B4 029:479 JLINK_WriteReg(R15 (PC), 0x200000B8)  returns 0x00 (0000ms, 0087ms total)
T44B4 029:479 JLINK_WriteReg(XPSR, 0x01000000)  returns 0x00 (0000ms, 0087ms total)
T44B4 029:479 JLINK_WriteReg(MSP, 0x20001000)  returns 0x00 (0000ms, 0087ms total)
T44B4 029:479 JLINK_WriteReg(PSP, 0x20001000)  returns 0x00 (0000ms, 0087ms total)
T44B4 029:479 JLINK_WriteReg(CFBP, 0x00000000)  returns 0x00 (0000ms, 0087ms total)
T44B4 029:479 JLINK_SetBPEx(Addr = 0x20000000, Type = 0xFFFFFFF2)  returns 0x0000000F (0000ms, 0087ms total)
T44B4 029:479 JLINK_Go() (0001ms, 0088ms total)
T44B4 029:480 JLINK_IsHalted()  returns FALSE (0000ms, 0088ms total)
T44B4 029:485 JLINK_IsHalted()  returns FALSE (0000ms, 0088ms total)
T44B4 029:487 JLINK_IsHalted()  returns FALSE (0000ms, 0088ms total)
T44B4 029:491 JLINK_IsHalted()  returns FALSE (0000ms, 0088ms total)
T44B4 029:493 JLINK_IsHalted()  returns FALSE (0000ms, 0088ms total)
T44B4 029:494 JLINK_IsHalted()  returns FALSE (0000ms, 0088ms total)
T44B4 029:498 JLINK_IsHalted()  returns FALSE (0000ms, 0088ms total)
T44B4 029:499 JLINK_IsHalted()  returns FALSE (0000ms, 0088ms total)
T44B4 029:501 JLINK_IsHalted()  returns FALSE (0000ms, 0088ms total)
T44B4 029:502 JLINK_IsHalted() -- CPU_ReadMem(2 bytes @ 0x20000000)  returns TRUE (0002ms, 0090ms total)
T44B4 029:504 JLINK_ReadReg(R15 (PC))  returns 0x20000000 (0000ms, 0088ms total)
T44B4 029:504 JLINK_ClrBPEx(BPHandle = 0x0000000F)  returns 0x00 (0000ms, 0088ms total)
T44B4 029:504 JLINK_ReadReg(R0)  returns 0x00000000 (0000ms, 0088ms total)
T44B4 029:505 JLINK_WriteReg(R0, 0x08001C00)  returns 0x00 (0000ms, 0088ms total)
T44B4 029:505 JLINK_WriteReg(R1, 0x00000400)  returns 0x00 (0000ms, 0088ms total)
T44B4 029:505 JLINK_WriteReg(R2, 0x000000FF)  returns 0x00 (0000ms, 0088ms total)
T44B4 029:505 JLINK_WriteReg(R3, 0x00000000)  returns 0x00 (0000ms, 0088ms total)
T44B4 029:505 JLINK_WriteReg(R4, 0x00000000)  returns 0x00 (0000ms, 0088ms total)
T44B4 029:505 JLINK_WriteReg(R5, 0x00000000)  returns 0x00 (0000ms, 0088ms total)
T44B4 029:505 JLINK_WriteReg(R6, 0x00000000)  returns 0x00 (0000ms, 0088ms total)
T44B4 029:505 JLINK_WriteReg(R7, 0x00000000)  returns 0x00 (0000ms, 0088ms total)
T44B4 029:505 JLINK_WriteReg(R8, 0x00000000)  returns 0x00 (0000ms, 0088ms total)
T44B4 029:505 JLINK_WriteReg(R9, 0x2000016C)  returns 0x00 (0000ms, 0088ms total)
T44B4 029:505 JLINK_WriteReg(R10, 0x00000000)  returns 0x00 (0000ms, 0088ms total)
T44B4 029:505 JLINK_WriteReg(R11, 0x00000000)  returns 0x00 (0000ms, 0088ms total)
T44B4 029:505 JLINK_WriteReg(R12, 0x00000000)  returns 0x00 (0000ms, 0088ms total)
T44B4 029:505 JLINK_WriteReg(R13 (SP), 0x20001000)  returns 0x00 (0000ms, 0088ms total)
T44B4 029:505 JLINK_WriteReg(R14, 0x20000001)  returns 0x00 (0000ms, 0088ms total)
T44B4 029:505 JLINK_WriteReg(R15 (PC), 0x20000020)  returns 0x00 (0000ms, 0088ms total)
T44B4 029:505 JLINK_WriteReg(XPSR, 0x01000000)  returns 0x00 (0000ms, 0088ms total)
T44B4 029:505 JLINK_WriteReg(MSP, 0x20001000)  returns 0x00 (0000ms, 0088ms total)
T44B4 029:505 JLINK_WriteReg(PSP, 0x20001000)  returns 0x00 (0000ms, 0088ms total)
T44B4 029:505 JLINK_WriteReg(CFBP, 0x00000000)  returns 0x00 (0000ms, 0088ms total)
T44B4 029:505 JLINK_SetBPEx(Addr = 0x20000000, Type = 0xFFFFFFF2)  returns 0x00000010 (0000ms, 0088ms total)
T44B4 029:505 JLINK_Go() (0001ms, 0089ms total)
T44B4 029:506 JLINK_IsHalted() -- CPU_ReadMem(2 bytes @ 0x20000000)  returns TRUE (0002ms, 0091ms total)
T44B4 029:508 JLINK_ReadReg(R15 (PC))  returns 0x20000000 (0000ms, 0089ms total)
T44B4 029:508 JLINK_ClrBPEx(BPHandle = 0x00000010)  returns 0x00 (0000ms, 0089ms total)
T44B4 029:508 JLINK_ReadReg(R0)  returns 0x00000001 (0000ms, 0089ms total)
T44B4 029:508 JLINK_WriteReg(R0, 0x08001C00)  returns 0x00 (0000ms, 0089ms total)
T44B4 029:508 JLINK_WriteReg(R1, 0x00000400)  returns 0x00 (0000ms, 0089ms total)
T44B4 029:508 JLINK_WriteReg(R2, 0x000000FF)  returns 0x00 (0000ms, 0089ms total)
T44B4 029:508 JLINK_WriteReg(R3, 0x00000000)  returns 0x00 (0000ms, 0089ms total)
T44B4 029:508 JLINK_WriteReg(R4, 0x00000000)  returns 0x00 (0000ms, 0089ms total)
T44B4 029:508 JLINK_WriteReg(R5, 0x00000000)  returns 0x00 (0000ms, 0089ms total)
T44B4 029:508 JLINK_WriteReg(R6, 0x00000000)  returns 0x00 (0000ms, 0089ms total)
T44B4 029:508 JLINK_WriteReg(R7, 0x00000000)  returns 0x00 (0000ms, 0089ms total)
T44B4 029:508 JLINK_WriteReg(R8, 0x00000000)  returns 0x00 (0000ms, 0089ms total)
T44B4 029:508 JLINK_WriteReg(R9, 0x2000016C)  returns 0x00 (0000ms, 0089ms total)
T44B4 029:508 JLINK_WriteReg(R10, 0x00000000)  returns 0x00 (0000ms, 0089ms total)
T44B4 029:508 JLINK_WriteReg(R11, 0x00000000)  returns 0x00 (0000ms, 0089ms total)
T44B4 029:508 JLINK_WriteReg(R12, 0x00000000)  returns 0x00 (0000ms, 0089ms total)
T44B4 029:508 JLINK_WriteReg(R13 (SP), 0x20001000)  returns 0x00 (0000ms, 0089ms total)
T44B4 029:508 JLINK_WriteReg(R14, 0x20000001)  returns 0x00 (0000ms, 0089ms total)
T44B4 029:508 JLINK_WriteReg(R15 (PC), 0x200000B8)  returns 0x00 (0000ms, 0089ms total)
T44B4 029:508 JLINK_WriteReg(XPSR, 0x01000000)  returns 0x00 (0000ms, 0089ms total)
T44B4 029:508 JLINK_WriteReg(MSP, 0x20001000)  returns 0x00 (0000ms, 0089ms total)
T44B4 029:508 JLINK_WriteReg(PSP, 0x20001000)  returns 0x00 (0000ms, 0089ms total)
T44B4 029:508 JLINK_WriteReg(CFBP, 0x00000000)  returns 0x00 (0000ms, 0089ms total)
T44B4 029:508 JLINK_SetBPEx(Addr = 0x20000000, Type = 0xFFFFFFF2)  returns 0x00000011 (0000ms, 0089ms total)
T44B4 029:508 JLINK_Go() (0001ms, 0090ms total)
T44B4 029:509 JLINK_IsHalted()  returns FALSE (0000ms, 0090ms total)
T44B4 029:512 JLINK_IsHalted()  returns FALSE (0000ms, 0090ms total)
T44B4 029:514 JLINK_IsHalted()  returns FALSE (0000ms, 0090ms total)
T44B4 029:516 JLINK_IsHalted()  returns FALSE (0000ms, 0090ms total)
T44B4 029:517 JLINK_IsHalted()  returns FALSE (0000ms, 0090ms total)
T44B4 029:519 JLINK_IsHalted()  returns FALSE (0000ms, 0090ms total)
T44B4 029:524 JLINK_IsHalted()  returns FALSE (0000ms, 0090ms total)
T44B4 029:525 JLINK_IsHalted()  returns FALSE (0000ms, 0090ms total)
T44B4 029:528 JLINK_IsHalted()  returns FALSE (0000ms, 0090ms total)
T44B4 029:530 JLINK_IsHalted()  returns FALSE (0000ms, 0090ms total)
T44B4 029:531 JLINK_IsHalted() -- CPU_ReadMem(2 bytes @ 0x20000000)  returns TRUE (0002ms, 0092ms total)
T44B4 029:533 JLINK_ReadReg(R15 (PC))  returns 0x20000000 (0000ms, 0090ms total)
T44B4 029:533 JLINK_ClrBPEx(BPHandle = 0x00000011)  returns 0x00 (0000ms, 0090ms total)
T44B4 029:533 JLINK_ReadReg(R0)  returns 0x00000000 (0000ms, 0090ms total)
T44B4 029:534 JLINK_WriteReg(R0, 0x08002000)  returns 0x00 (0000ms, 0090ms total)
T44B4 029:534 JLINK_WriteReg(R1, 0x00000400)  returns 0x00 (0000ms, 0090ms total)
T44B4 029:534 JLINK_WriteReg(R2, 0x000000FF)  returns 0x00 (0000ms, 0090ms total)
T44B4 029:534 JLINK_WriteReg(R3, 0x00000000)  returns 0x00 (0000ms, 0090ms total)
T44B4 029:534 JLINK_WriteReg(R4, 0x00000000)  returns 0x00 (0000ms, 0090ms total)
